
**** 08/28/21 12:17:16 ******* PSpice 17.4.0 (Nov 2018) ******* ID# 0 ********

 ** Profile: "SCHEMATIC1-counter"  [ e:\local\college\classes\2021bf\ecen4013\ecen4013\adc\pspice\schematic\adc-pspicefiles\schematic


 ****     CIRCUIT DESCRIPTION


******************************************************************************




** Creating circuit file "counter.cir" 
** WARNING: THIS AUTOMATICALLY GENERATED FILE MAY BE OVERWRITTEN BY SUBSEQUENT SIMULATIONS

*Libraries: 
* Profile Libraries :
.INC "e:\local\college\classes\2021bf\ecen4013\ecen4013\adc\pspice\schematic\adc-pspicefiles\schematic1\counter\counter_profile.inc"
+ "" 
* Local Libraries :
* From [PSPICE NETLIST] section of C:\Users\colli\AppData\Roaming\SPB_Data\cdssetup\OrCAD_PSpice\17.4.0\PSpice.ini file:

**** INCLUDING counter_profile.inc ****
.STMLIB ".\counter.stl" 

**** RESUMING counter.cir ****
.lib "E:\local\college\microg\saver2021\signals\pspice\models\Q50a02ch.lib" 
.lib "nom.lib" 

*Analysis directives: 
.TRAN  0 260u 252u 1n 
.OPTIONS ADVCONV
.PROBE64 V(alias(*)) I(alias(*)) W(alias(*)) D(alias(*)) NOISE(alias(*)) 
.INC "..\SCHEMATIC1.net" 



**** INCLUDING SCHEMATIC1.net ****
* source ADC
E_U1         N00165 0 VALUE {LIMIT(V(0,N01900)*1E6,-5V,+5V)}
C_C1         N01900 N00165  12.8n IC=0 TC=0,0 
R_R1         N01900 VIN  20k TC=0,0 
E_U2         N02733 0 VALUE {LIMIT(V(VREF,N00165)*1E6,0V,+5V)}
V_Vref         VREF 0 0
U_DSTM1         STIM(1,1) $G_DPWR $G_DGND N18252 IO_STM IO_LEVEL=0 
+ 0 0
+ +0 1
+REPEAT FOREVER
+ +500n 0
+  +500n 1
+ ENDREPEAT
U_DSTM4         STIM(1,0) $G_DPWR $G_DGND N16069 IO_STM STIMULUS=RST
V_V2         VIN 0 5
X_U9         N01900 N00165 Sw_tClose PARAMS: tClose=256u ttran=1u Rclosed=7
+  Ropen=1Meg
X_U10A         N18252 N16069 N02733 Q0 Q1 Q2 Q3 $G_CD4000_VDD $G_CD4000_VSS
+  CD4520B PARAMS:
+ IO_LEVEL=0 MNTYMXDLY=0
X_U10B         0 N16069 Q3 Q4 Q5 Q6 Q7 $G_CD4000_VDD $G_CD4000_VSS CD4520B
+  PARAMS:
+ IO_LEVEL=0 MNTYMXDLY=0

**** RESUMING counter.cir ****
.END


**** Generated AtoD and DtoA Interfaces ****

*
* Analog/Digital interface for node 0
*
* Moving X_U10B.U1:IN1 from analog node 0 to new digital node 0$AtoD
X$0_AtoD1
+ 0
+ 0$AtoD
+ $G_CD4000_VDD
+ $G_CD4000_VSS
+ AtoD_4000B
+       PARAMS: CAPACITANCE=   0     
*
* Analog/Digital interface for node N02733
*
* Moving X_U10A.U2:IN1 from analog node N02733 to new digital node N02733$AtoD
X$N02733_AtoD1
+ N02733
+ N02733$AtoD
+ $G_CD4000_VDD
+ $G_CD4000_VSS
+ AtoD_4000B
+       PARAMS: CAPACITANCE=   0     
*
* Analog/Digital interface power supply subcircuits
*
X$CD4000_PWR 0 CD4000_PWR

* E:\local\college\classes\2021bF\ECEN4013\ADC\pspice\schematic\adc-PSpiceFiles\SCHEMATIC1\counter\counter.stl written on Thu Aug 26 16:01:46 2021
* by Stimulus Editor -- Serial Number: 0 -- Version 17.4.0
;!Stimulus Get
;! B Digital LOW Digital RST Digital HIGH Digital
;!Ok
;!Plot Axis_Settings
;!Xrange 0s 300ns
;!AutoUniverse
;!XminRes 1ns
;!YminRes 1n
;!Ok
.STIMULUS B STIM (1, 1)
+   +0s 0
+   56ns 1
.STIMULUS LOW STIM (1, 1)
+   +0s 0
.STIMULUS RST STIM (1, 1)
+   +0s 1
+   253ns 0
.STIMULUS HIGH STIM (1, 1)
+   +0s 1

**** 08/28/21 12:17:16 ******* PSpice 17.4.0 (Nov 2018) ******* ID# 0 ********

 ** Profile: "SCHEMATIC1-counter"  [ e:\local\college\classes\2021bf\ecen4013\ecen4013\adc\pspice\schematic\adc-pspicefiles\schematic


 ****     Diode MODEL PARAMETERS


******************************************************************************




               D74CLMP         
          IS    1.000000E-15 
          RS    2            
         CJO    2.000000E-12 


**** 08/28/21 12:17:16 ******* PSpice 17.4.0 (Nov 2018) ******* ID# 0 ********

 ** Profile: "SCHEMATIC1-counter"  [ e:\local\college\classes\2021bf\ecen4013\ecen4013\adc\pspice\schematic\adc-pspicefiles\schematic


 ****     Voltage Controlled Switch MODEL PARAMETERS


******************************************************************************




               X_U9.Smod       
         RON    7            
        ROFF    1.000000E+06 
         VON    1            
        VOFF    0            


**** 08/28/21 12:17:16 ******* PSpice 17.4.0 (Nov 2018) ******* ID# 0 ********

 ** Profile: "SCHEMATIC1-counter"  [ e:\local\college\classes\2021bf\ecen4013\ecen4013\adc\pspice\schematic\adc-pspicefiles\schematic


 ****     Digital Output MODEL PARAMETERS


******************************************************************************




               DO4000B         
    TIMESTEP  100.000000E-12 
      S0NAME X               
       S0VHI     .5          
       S0VLO    -.5          
      S1NAME 0               
       S1VHI    -.5          
       S1VLO   -3            
      S2NAME R               
       S2VHI     .05         
       S2VLO    -.5          
      S3NAME R               
       S3VHI     .5          
       S3VLO    -.05         
      S4NAME X               
       S4VHI     .5          
       S4VLO    -.5          
      S5NAME 1               
       S5VHI    3            
       S5VLO     .5          
      S6NAME F               
       S6VHI     .5          
       S6VLO    -.05         
      S7NAME F               
       S7VHI     .05         
       S7VLO    -.5          


**** 08/28/21 12:17:16 ******* PSpice 17.4.0 (Nov 2018) ******* ID# 0 ********

 ** Profile: "SCHEMATIC1-counter"  [ e:\local\college\classes\2021bf\ecen4013\ecen4013\adc\pspice\schematic\adc-pspicefiles\schematic


 ****     Digital Gate MODEL PARAMETERS


******************************************************************************




               D0_GATE         D_CD4520B_1     D_CD4520B_3     
      TPLHMN    0             200.000000E-09   25.000000E-09 
      TPLHTY    0             500.000000E-09   62.500000E-09 
      TPLHMX    0             800.000000E-09  100.000000E-09 
      TPHLMN    0               0              25.000000E-09 
      TPHLTY    0               0              62.500000E-09 
      TPHLMX    0               0             100.000000E-09 


**** 08/28/21 12:17:16 ******* PSpice 17.4.0 (Nov 2018) ******* ID# 0 ********

 ** Profile: "SCHEMATIC1-counter"  [ e:\local\college\classes\2021bf\ecen4013\ecen4013\adc\pspice\schematic\adc-pspicefiles\schematic


 ****     Digital Edge Triggered FF MODEL PARAMETERS


******************************************************************************




               D_CD4520B_2     
  TPCLKQLHMN  115.000000E-09 
  TPCLKQLHTY  287.500000E-09 
  TPCLKQLHMX  460.000000E-09 
  TPCLKQHLMN  115.000000E-09 
  TPCLKQHLTY  287.500000E-09 
  TPCLKQHLMX  460.000000E-09 
   TPPCQLHMN  112.000000E-09 
   TPPCQLHTY  280.000000E-09 
   TPPCQLHMX  550.000000E-09 
   TPPCQHLMN  112.000000E-09 
   TPPCQHLTY  280.000000E-09 
   TPPCQHLMX  550.000000E-09 
    TWCLKLMN  200.000000E-09 
    TWCLKLTY  200.000000E-09 
    TWCLKLMX  200.000000E-09 
    TWCLKHMN  200.000000E-09 
    TWCLKHTY  200.000000E-09 
    TWCLKHMX  200.000000E-09 
     TWPCLMN  250.000000E-09 
     TWPCLTY  250.000000E-09 
     TWPCLMX  250.000000E-09 
   TSUDCLKMN    0            
   TSUDCLKTY    0            
   TSUDCLKMX    0            
 TSUPCCLKHMN    0            
 TSUPCCLKHTY    0            
 TSUPCCLKHMX    0            
    THDCLKMN    0            
    THDCLKTY    0            
    THDCLKMX    0            
  TSUCECLKMN    0            
  TSUCECLKTY    0            
  TSUCECLKMX    0            
   THCECLKMN    0            
   THCECLKTY    0            
   THCECLKMX    0            


**** 08/28/21 12:17:16 ******* PSpice 17.4.0 (Nov 2018) ******* ID# 0 ********

 ** Profile: "SCHEMATIC1-counter"  [ e:\local\college\classes\2021bf\ecen4013\ecen4013\adc\pspice\schematic\adc-pspicefiles\schematic


 ****     Digital IO  MODEL PARAMETERS


******************************************************************************




               IO_STM          IO_4000B        
        DRVL    0               1.443000E+03 
        DRVH    0               1.443000E+03 
       AtoD1                 AtoD_4000B      
       AtoD2                 AtoD_4000B_NX   
       AtoD3                 AtoD_4000B      
       AtoD4                 AtoD_4000B_NX   
       DtoA1 DtoA_STM        DtoA_4000B      
       DtoA2 DtoA_STM        DtoA_4000B      
       DtoA3 DtoA_STM        DtoA_4000B      
       DtoA4 DtoA_STM        DtoA_4000B      
    DIGPOWER                 CD4000_PWR      
      TSWHL1                    7.720000E-09 
      TSWHL2                    7.860000E-09 
      TSWHL3                    9.710000E-09 
      TSWHL4                    9.630000E-09 
      TSWLH1                    7.560000E-09 
      TSWLH2                    7.400000E-09 
      TSWLH3                    9.410000E-09 
      TSWLH4                    9.240000E-09 
       TPWRT  100.000000E+03  100.000000E+03 


**** 08/28/21 12:17:16 ******* PSpice 17.4.0 (Nov 2018) ******* ID# 0 ********

 ** Profile: "SCHEMATIC1-counter"  [ e:\local\college\classes\2021bf\ecen4013\ecen4013\adc\pspice\schematic\adc-pspicefiles\schematic


 ****     INITIAL TRANSIENT SOLUTION       TEMPERATURE =   27.000 DEG C


******************************************************************************



 NODE   VOLTAGE     NODE   VOLTAGE     NODE   VOLTAGE     NODE   VOLTAGE


(  VIN)    5.0000  ( VREF)    0.0000  (N00165)-500.0E-09 (N01900) 500.0E-15     

(N02733)     .5000 (X_U9.3)    0.0000 ($G_CD4000_VDD)    5.0000                 

($G_CD4000_VSS)    0.0000             (X$0_AtoD1.NORM)   -1.2500                

(X$N02733_AtoD1.NORM)   -1.0000       (X$0_AtoD1.XNORM.THRESHOLD)    1.5000     

(X$N02733_AtoD1.XNORM.THRESHOLD)    1.5000               



 DGTL NODE : STATE  DGTL NODE : STATE  DGTL NODE : STATE  DGTL NODE : STATE


(      Q7) : 0     (      Q4) : 0     (X_U10B.2Q) : 0    (  N18252) : 1         

(      Q1) : 0     (  N16069) : 1     (X_U10A.1Q) : 0    (X_U10B.4Q) : 0        

(X_U10B.3Q) : 0    (X_U10A.CK1) : 1   (   $D_HI) : 1     (X_U10B.CK4) : 1       

(X_U10A.CK2) : 1   (X_U10A.2Q) : 0    (X_U10B.2QB) : 1   (X_U10A.CLR) : 0       

(X_U10B.CK1) : 1   (X_U10A.1QB) : 1   (      Q5) : 0     (X_U10B.CLKB) : 1      

(      Q2) : 0     (X_U10A.4QB) : 1   (N02733$AtoD) : 0  (X_U10A.4Q) : 0        

(X_U10A.3Q) : 0    (X_U10A.3QB) : 1   (X_U10A.CLKB) : 0  (  0$AtoD) : 0         

(X_U10A.CK1B) : 0  (X_U10A.CK3) : 1   (X_U10B.END) : 0   (X_U10B.CK2) : 1       

(X_U10A.CK4) : 1   (X_U10B.CLR) : 0   (      Q6) : 0     (X_U10B.1QB) : 1       

(      Q3) : 0     (      Q0) : 0     (X_U10B.4QB) : 1   (X_U10B.CK1B) : 0      

(X_U10B.3QB) : 1   (X_U10B.1Q) : 0    (X_U10A.2QB) : 1   (X_U10B.CK3) : 1       

(X_U10A.END) : 0   




    VOLTAGE SOURCE CURRENTS
    NAME         CURRENT

    V_Vref       0.000E+00
    V_V2        -2.500E-04
    X_U9.V1      0.000E+00
    X$CD4000_PWR.VVDD  -5.095E-06
    X$CD4000_PWR.VVSS  -5.090E-06

    TOTAL POWER DISSIPATION   1.28E-03  WATTS



          JOB CONCLUDED

**** 08/28/21 12:17:16 ******* PSpice 17.4.0 (Nov 2018) ******* ID# 0 ********

 ** Profile: "SCHEMATIC1-counter"  [ e:\local\college\classes\2021bf\ecen4013\ecen4013\adc\pspice\schematic\adc-pspicefiles\schematic


 ****     JOB STATISTICS SUMMARY


******************************************************************************



  License check-out time            =      115.41
  Total job time (using Solver 1)   =        5.52
